
**** 11/24/20 16:25:51 ******* PSpice Lite (March 2016) ******* ID# 10813 ****

 ** Profile: "SCHEMATIC1-dcsweep"  [ D:\Orcad\lab2\lab2-pspicefiles\schematic1\dcsweep.sim ] 


 ****     CIRCUIT DESCRIPTION


******************************************************************************




** Creating circuit file "dcsweep.cir" 
** WARNING: THIS AUTOMATICALLY GENERATED FILE MAY BE OVERWRITTEN BY SUBSEQUENT SIMULATIONS

*Libraries: 
* Profile Libraries :
.INC "D:\Orcad\lab2\lab2-pspicefiles\schematic1\dcsweep\dcsweep_profile.inc" 
* Local Libraries :

**** INCLUDING dcsweep_profile.inc ****
.STMLIB "./dcsweep.stl" 

**** RESUMING dcsweep.cir ****
.INC "../../../clip.inc" 
* From [PSPICE NETLIST] section of C:\Users\bohda\AppData\Roaming\SPB_Data\cdssetup\OrCAD_PSpice\17.2.0\PSpice.ini file:

**** INCLUDING clip.inc ****
.PRINT DC I(D_D2) V([Mid]) V(D_D2)

**** RESUMING dcsweep.cir ****
.lib "nomd.lib" 

*Analysis directives: 
.DC TEMP LIST 0 25 75 125  
+ LIN V_Vin -5 5 1 
.OPTIONS ADVCONV
.PROBE64 V(alias(*)) I(alias(*)) W(alias(*)) D(alias(*)) NOISE(alias(*)) 
.INC "..\SCHEMATIC1.net" 



**** INCLUDING SCHEMATIC1.net ****
* source LAB2
R_R2         MID VCC  3.3k TC=0,0 
R_R3         0 MID  3.3k TC=0,0 
R_R4         0 OUT  5.5k TC=0,0 
C_C1         MID OUT  0.47u  TC=0,0 
D_D1         MID VCC D1N3940 
D_D2         0 ICB D1N3940 
R_R1         IN MID  1k TC=0,0 
V_V1         VCC 0 5V
V_PRINT1         MID ICB 0V
         
.PRINT        DC I(V_PRINT1) 
          
.PRINT         DC V([MID]) 
          
.PRINT         DC V([0],[ICB]) 
V_V2         N04672 0   STIMULUS=Sin
V_Vin         IN N04672 DC 0Vdc AC 1V 

**** RESUMING dcsweep.cir ****
.END

* d:\orcad\lab2\lab2-PSpiceFiles\SCHEMATIC1\dcsweep\dcsweep.stl written on Wed Oct 28 10:46:01 2020
* by Stimulus Editor -- Lite Version 17.2.0
;!Stimulus Get
;! Sin Analog
;!Ok
;!Plot Axis_Settings
;!Xrange 0s 3ms
;!Yrange -10 10
;!AutoUniverse
;!XminRes 1ns
;!YminRes 1n
;!Ok
.STIMULUS Sin SIN( 0 10 1K 0 0 0 )

**** 11/24/20 16:25:51 ******* PSpice Lite (March 2016) ******* ID# 10813 ****

 ** Profile: "SCHEMATIC1-dcsweep"  [ D:\Orcad\lab2\lab2-pspicefiles\schematic1\dcsweep.sim ] 


 ****     Diode MODEL PARAMETERS


******************************************************************************




               D1N3940         
          IS  400.000000E-12 
           N    1.48         
          BV  600            
         IBV  100.000000E-06 
          RS     .105        
          TT  800.000000E-09 
         CJO   19.500000E-12 
          VJ     .4          
           M     .38         
          FC     .9          
          EG    1.36         
         XTI   -8            


**** 11/24/20 16:25:51 ******* PSpice Lite (March 2016) ******* ID# 10813 ****

 ** Profile: "SCHEMATIC1-dcsweep"  [ D:\Orcad\lab2\lab2-pspicefiles\schematic1\dcsweep.sim ] 


 ****     DC TRANSFER CURVES               TEMPERATURE IS SWEPT


******************************************************************************



  TEMP        I(D_D2)     V(Mid)      V(D_D2)     

   0.000E+00   2.443E-03  -6.491E-01   6.491E-01
   2.500E+01   2.516E-03  -6.032E-01   6.032E-01
   7.500E+01   2.656E-03  -5.159E-01   5.159E-01
   1.250E+02   2.787E-03  -4.339E-01   4.339E-01
   0.000E+00   1.471E-03  -6.314E-01   6.314E-01
   2.500E+01   1.546E-03  -5.846E-01   5.846E-01
   7.500E+01   1.689E-03  -4.957E-01   4.957E-01
   1.250E+02   1.822E-03  -4.122E-01   4.122E-01
   0.000E+00   5.285E-04  -5.956E-01   5.956E-01
   2.500E+01   6.036E-04  -5.487E-01   5.487E-01
   7.500E+01   7.471E-04  -4.593E-01   4.593E-01
   1.250E+02   8.816E-04  -3.753E-01   3.753E-01
   0.000E+00   1.150E-07  -3.018E-01   3.018E-01
   2.500E+01   9.030E-07  -3.013E-01   3.013E-01
   7.500E+01   1.698E-05  -2.913E-01   2.913E-01
   1.250E+02   7.848E-05  -2.527E-01   2.527E-01
   0.000E+00  -2.019E-11   3.208E-01  -3.208E-01
   2.500E+01  -3.270E-10   3.208E-01  -3.208E-01
   7.500E+01  -2.403E-08   3.208E-01  -3.208E-01
   1.250E+02  -5.443E-07   3.208E-01  -3.208E-01
   0.000E+00  -2.081E-11   9.434E-01  -9.434E-01
   2.500E+01  -3.277E-10   9.434E-01  -9.434E-01
   7.500E+01  -2.405E-08   9.434E-01  -9.434E-01
   1.250E+02  -5.453E-07   9.434E-01  -9.434E-01
   0.000E+00  -2.143E-11   1.566E+00  -1.566E+00
   2.500E+01  -3.283E-10   1.566E+00  -1.566E+00
   7.500E+01  -2.405E-08   1.566E+00  -1.566E+00
   1.250E+02  -5.453E-07   1.566E+00  -1.566E+00
   0.000E+00  -2.206E-11   2.189E+00  -2.189E+00
   2.500E+01  -3.290E-10   2.189E+00  -2.189E+00
   7.500E+01  -2.405E-08   2.189E+00  -2.189E+00
   1.250E+02  -5.453E-07   2.189E+00  -2.189E+00
   0.000E+00  -2.268E-11   2.811E+00  -2.811E+00
   2.500E+01  -3.296E-10   2.811E+00  -2.811E+00
   7.500E+01  -2.405E-08   2.811E+00  -2.811E+00
   1.250E+02  -5.453E-07   2.811E+00  -2.811E+00
   0.000E+00  -2.330E-11   3.434E+00  -3.434E+00
   2.500E+01  -3.302E-10   3.434E+00  -3.434E+00
   7.500E+01  -2.406E-08   3.434E+00  -3.434E+00
   1.250E+02  -5.453E-07   3.434E+00  -3.434E+00
   0.000E+00  -2.392E-11   4.057E+00  -4.057E+00
   2.500E+01  -3.308E-10   4.057E+00  -4.057E+00
   7.500E+01  -2.406E-08   4.057E+00  -4.057E+00
   1.250E+02  -5.453E-07   4.057E+00  -4.057E+00



**** 11/24/20 16:25:51 ******* PSpice Lite (March 2016) ******* ID# 10813 ****

 ** Profile: "SCHEMATIC1-dcsweep"  [ D:\Orcad\lab2\lab2-pspicefiles\schematic1\dcsweep.sim ] 


 ****     DC TRANSFER CURVES               TEMPERATURE IS SWEPT


******************************************************************************



  TEMP        I(V_PRINT1) 

   0.000E+00  -2.442E-03
   2.500E+01  -2.516E-03
   7.500E+01  -2.656E-03
   1.250E+02  -2.787E-03
   0.000E+00  -1.471E-03
   2.500E+01  -1.546E-03
   7.500E+01  -1.689E-03
   1.250E+02  -1.822E-03
   0.000E+00  -5.283E-04
   2.500E+01  -6.036E-04
   7.500E+01  -7.471E-04
   1.250E+02  -8.816E-04
   0.000E+00  -1.150E-07
   2.500E+01  -9.030E-07
   7.500E+01  -1.698E-05
   1.250E+02  -7.848E-05
   0.000E+00   2.019E-11
   2.500E+01   3.270E-10
   7.500E+01   2.403E-08
   1.250E+02   5.443E-07
   0.000E+00   2.081E-11
   2.500E+01   3.277E-10
   7.500E+01   2.405E-08
   1.250E+02   5.453E-07
   0.000E+00   2.143E-11
   2.500E+01   3.283E-10
   7.500E+01   2.405E-08
   1.250E+02   5.453E-07
   0.000E+00   2.206E-11
   2.500E+01   3.290E-10
   7.500E+01   2.405E-08
   1.250E+02   5.453E-07
   0.000E+00   2.268E-11
   2.500E+01   3.296E-10
   7.500E+01   2.405E-08
   1.250E+02   5.453E-07
   0.000E+00   2.330E-11
   2.500E+01   3.302E-10
   7.500E+01   2.406E-08
   1.250E+02   5.453E-07
   0.000E+00   2.392E-11
   2.500E+01   3.308E-10
   7.500E+01   2.406E-08
   1.250E+02   5.453E-07



**** 11/24/20 16:25:51 ******* PSpice Lite (March 2016) ******* ID# 10813 ****

 ** Profile: "SCHEMATIC1-dcsweep"  [ D:\Orcad\lab2\lab2-pspicefiles\schematic1\dcsweep.sim ] 


 ****     DC TRANSFER CURVES               TEMPERATURE IS SWEPT


******************************************************************************



  TEMP        V(MID)      

   0.000E+00  -6.491E-01
   2.500E+01  -6.032E-01
   7.500E+01  -5.159E-01
   1.250E+02  -4.339E-01
   0.000E+00  -6.314E-01
   2.500E+01  -5.846E-01
   7.500E+01  -4.957E-01
   1.250E+02  -4.122E-01
   0.000E+00  -5.956E-01
   2.500E+01  -5.487E-01
   7.500E+01  -4.593E-01
   1.250E+02  -3.753E-01
   0.000E+00  -3.018E-01
   2.500E+01  -3.013E-01
   7.500E+01  -2.913E-01
   1.250E+02  -2.527E-01
   0.000E+00   3.208E-01
   2.500E+01   3.208E-01
   7.500E+01   3.208E-01
   1.250E+02   3.208E-01
   0.000E+00   9.434E-01
   2.500E+01   9.434E-01
   7.500E+01   9.434E-01
   1.250E+02   9.434E-01
   0.000E+00   1.566E+00
   2.500E+01   1.566E+00
   7.500E+01   1.566E+00
   1.250E+02   1.566E+00
   0.000E+00   2.189E+00
   2.500E+01   2.189E+00
   7.500E+01   2.189E+00
   1.250E+02   2.189E+00
   0.000E+00   2.811E+00
   2.500E+01   2.811E+00
   7.500E+01   2.811E+00
   1.250E+02   2.811E+00
   0.000E+00   3.434E+00
   2.500E+01   3.434E+00
   7.500E+01   3.434E+00
   1.250E+02   3.434E+00
   0.000E+00   4.057E+00
   2.500E+01   4.057E+00
   7.500E+01   4.057E+00
   1.250E+02   4.057E+00



**** 11/24/20 16:25:51 ******* PSpice Lite (March 2016) ******* ID# 10813 ****

 ** Profile: "SCHEMATIC1-dcsweep"  [ D:\Orcad\lab2\lab2-pspicefiles\schematic1\dcsweep.sim ] 


 ****     DC TRANSFER CURVES               TEMPERATURE IS SWEPT


******************************************************************************



  TEMP        V(0,ICB)    

   0.000E+00   6.491E-01
   2.500E+01   6.032E-01
   7.500E+01   5.159E-01
   1.250E+02   4.339E-01
   0.000E+00   6.314E-01
   2.500E+01   5.846E-01
   7.500E+01   4.957E-01
   1.250E+02   4.122E-01
   0.000E+00   5.956E-01
   2.500E+01   5.487E-01
   7.500E+01   4.593E-01
   1.250E+02   3.753E-01
   0.000E+00   3.018E-01
   2.500E+01   3.013E-01
   7.500E+01   2.913E-01
   1.250E+02   2.527E-01
   0.000E+00  -3.208E-01
   2.500E+01  -3.208E-01
   7.500E+01  -3.208E-01
   1.250E+02  -3.208E-01
   0.000E+00  -9.434E-01
   2.500E+01  -9.434E-01
   7.500E+01  -9.434E-01
   1.250E+02  -9.434E-01
   0.000E+00  -1.566E+00
   2.500E+01  -1.566E+00
   7.500E+01  -1.566E+00
   1.250E+02  -1.566E+00
   0.000E+00  -2.189E+00
   2.500E+01  -2.189E+00
   7.500E+01  -2.189E+00
   1.250E+02  -2.189E+00
   0.000E+00  -2.811E+00
   2.500E+01  -2.811E+00
   7.500E+01  -2.811E+00
   1.250E+02  -2.811E+00
   0.000E+00  -3.434E+00
   2.500E+01  -3.434E+00
   7.500E+01  -3.434E+00
   1.250E+02  -3.434E+00
   0.000E+00  -4.057E+00
   2.500E+01  -4.057E+00
   7.500E+01  -4.057E+00
   1.250E+02  -4.057E+00




          JOB CONCLUDED

**** 11/24/20 16:25:51 ******* PSpice Lite (March 2016) ******* ID# 10813 ****

 ** Profile: "SCHEMATIC1-dcsweep"  [ D:\Orcad\lab2\lab2-pspicefiles\schematic1\dcsweep.sim ] 


 ****     JOB STATISTICS SUMMARY


******************************************************************************



  Total job time (using Solver 1)   =         .17
