
**** 11/07/20 16:36:56 ******* PSpice Lite (March 2016) ******* ID# 10813 ****

 ** Profile: "SCHEMATIC1-gen-bias"  [ c:\projects_orcad\lab3\gen-PSpiceFiles\SCHEMATIC1\gen-bias.sim ] 


 ****     CIRCUIT DESCRIPTION


******************************************************************************




** Creating circuit file "gen-bias.cir" 
** WARNING: THIS AUTOMATICALLY GENERATED FILE MAY BE OVERWRITTEN BY SUBSEQUENT SIMULATIONS

*Libraries: 
* Profile Libraries :
* Local Libraries :
* From [PSPICE NETLIST] section of C:\Users\lazar\AppData\Roaming\SPB_Data\cdssetup\OrCAD_PSpice\17.2.0\PSpice.ini file:
.lib "nomd.lib" 

*Analysis directives: 
.OP
.OPTIONS ADVCONV
.PROBE64 V(alias(*)) I(alias(*)) W(alias(*)) D(alias(*)) NOISE(alias(*)) 
.INC "..\SCHEMATIC1.net" 



**** INCLUDING SCHEMATIC1.net ****
* source GEN
C_C1         N00272 OUT  10p  TC=0,0 
C_C2         0 N00272  120p  TC=0,0 
C_C3         OUT N00246  30p  TC=0,0 
R_R1         0 N00272  510 TC=0,0 
R_R2         N00386 N00246  15k TC=0,0 
R_R3         0 N00386  10k TC=0,0 
R_R4         OUT N00246  10k TC=0,0 
C_C4         0 N00386  2200p  TC=0,0 
L_L1         OUT N00246  1u IC=53.2uA 
Q_Q1         OUT N00386 N00272 Q2N2222
V_V2         N00246 0 1.5V
.IC         V(OUT )=0.1V
.IC         V(N00386 )=597mV
.IC         V(N00272 )=27.39mV

**** RESUMING gen-bias.cir ****
.END

**** 11/07/20 16:36:56 ******* PSpice Lite (March 2016) ******* ID# 10813 ****

 ** Profile: "SCHEMATIC1-gen-bias"  [ c:\projects_orcad\lab3\gen-PSpiceFiles\SCHEMATIC1\gen-bias.sim ] 


 ****     BJT MODEL PARAMETERS


******************************************************************************




               Q2N2222         
               NPN             
       LEVEL    1            
          IS   14.340000E-15 
          BF  255.9          
          NF    1            
         VAF   74.03         
         IKF     .2847       
         ISE   14.340000E-15 
          NE    1.307        
          BR    6.092        
          NR    1            
         ISS    0            
          RB   10            
          RE    0            
          RC    1            
         CJE   22.010000E-12 
         VJE     .75         
         MJE     .377        
         CJC    7.306000E-12 
         VJC     .75         
         MJC     .3416       
        XCJC    1            
         CJS    0            
         VJS     .75         
          TF  411.100000E-12 
         XTF    3            
         VTF    1.7          
         ITF     .6          
          TR   46.910000E-09 
         XTB    1.5          
          KF    0            
          AF    1            
          CN    2.42         
           D     .87         


**** 11/07/20 16:36:56 ******* PSpice Lite (March 2016) ******* ID# 10813 ****

 ** Profile: "SCHEMATIC1-gen-bias"  [ c:\projects_orcad\lab3\gen-PSpiceFiles\SCHEMATIC1\gen-bias.sim ] 


 ****     SMALL SIGNAL BIAS SOLUTION       TEMPERATURE =   27.000 DEG C


******************************************************************************



 NODE   VOLTAGE     NODE   VOLTAGE     NODE   VOLTAGE     NODE   VOLTAGE


(  OUT)     .1000  (N00246)    1.5000 (N00272)     .0274 (N00386)     .5970 




    VOLTAGE SOURCE CURRENTS
    NAME         CURRENT

    V_V2        -1.470E-04

    TOTAL POWER DISSIPATION   2.21E-04  WATTS


**** 11/07/20 16:36:56 ******* PSpice Lite (March 2016) ******* ID# 10813 ****

 ** Profile: "SCHEMATIC1-gen-bias"  [ c:\projects_orcad\lab3\gen-PSpiceFiles\SCHEMATIC1\gen-bias.sim ] 


 ****     OPERATING POINT INFORMATION      TEMPERATURE =   27.000 DEG C


******************************************************************************






**** BIPOLAR JUNCTION TRANSISTORS


NAME         Q_Q1      
MODEL        Q2N2222   
IB           1.03E-06 
IC           4.85E-05 
VBE          5.70E-01 
VBC          4.97E-01 
VCE          7.26E-02 
BETADC       4.73E+01 
GM           1.90E-03 
RPI          5.97E+04 
RX           1.00E+01 
RO           8.14E+03 
CBE          3.50E-11 
CBC          1.61E-11 
CJS          0.00E+00 
BETAAC       1.13E+02 
CBX/CBX2     0.00E+00 
FT/FT2       5.91E+06 



          JOB CONCLUDED

**** 11/07/20 16:36:56 ******* PSpice Lite (March 2016) ******* ID# 10813 ****

 ** Profile: "SCHEMATIC1-gen-bias"  [ c:\projects_orcad\lab3\gen-PSpiceFiles\SCHEMATIC1\gen-bias.sim ] 


 ****     JOB STATISTICS SUMMARY


******************************************************************************



  Total job time (using Solver 1)   =         .03
