
**** 11/10/20 21:45:10 ******* PSpice Lite (March 2016) ******* ID# 10813 ****

 ** Profile: "SCHEMATIC1-vibr_bias"  [ c:\projects_orcad\lab3\multivibr-PSpiceFiles\SCHEMATIC1\vibr_bias.sim ] 


 ****     CIRCUIT DESCRIPTION


******************************************************************************




** Creating circuit file "vibr_bias.cir" 
** WARNING: THIS AUTOMATICALLY GENERATED FILE MAY BE OVERWRITTEN BY SUBSEQUENT SIMULATIONS

*Libraries: 
* Profile Libraries :
* Local Libraries :
* From [PSPICE NETLIST] section of C:\Users\lazar\AppData\Roaming\SPB_Data\cdssetup\OrCAD_PSpice\17.2.0\PSpice.ini file:
.lib "nomd.lib" 

*Analysis directives: 
.OP
.OPTIONS ADVCONV
.PROBE64 V(alias(*)) I(alias(*)) W(alias(*)) D(alias(*)) NOISE(alias(*)) 
.INC "..\SCHEMATIC1.net" 



**** INCLUDING SCHEMATIC1.net ****
* source MULTIVIBR
Q_Q1         N00210 N00306 N00214 Q2N2222
Q_Q2         N00287 N00232 N00302 Q2N2222
R_R1         N00210 N00237  1k TC=0,0 
R_R2         N00232 N00237  100k TC=0,0 
R_R3         N00306 N00237  100k TC=0,0 
R_R4         N00287 N00237  1k TC=0,0 
R_R5         0 N00214  750 TC=0,0 
R_R6         0 N00302  750 TC=0,0 
C_C1         N00210 N00232  0.01u  TC=0,0 
C_C2         N00306 N00287  0.01u  TC=0,0 
V_V1         N00237 0 10V

**** RESUMING vibr_bias.cir ****
.END

**** 11/10/20 21:45:10 ******* PSpice Lite (March 2016) ******* ID# 10813 ****

 ** Profile: "SCHEMATIC1-vibr_bias"  [ c:\projects_orcad\lab3\multivibr-PSpiceFiles\SCHEMATIC1\vibr_bias.sim ] 


 ****     BJT MODEL PARAMETERS


******************************************************************************




               Q2N2222         
               NPN             
       LEVEL    1            
          IS   14.340000E-15 
          BF  255.9          
          NF    1            
         VAF   74.03         
         IKF     .2847       
         ISE   14.340000E-15 
          NE    1.307        
          BR    6.092        
          NR    1            
         ISS    0            
          RB   10            
          RE    0            
          RC    1            
         CJE   22.010000E-12 
         VJE     .75         
         MJE     .377        
         CJC    7.306000E-12 
         VJC     .75         
         MJC     .3416       
        XCJC    1            
         CJS    0            
         VJS     .75         
          TF  411.100000E-12 
         XTF    3            
         VTF    1.7          
         ITF     .6          
          TR   46.910000E-09 
         XTB    1.5          
          KF    0            
          AF    1            
          CN    2.42         
           D     .87         


**** 11/10/20 21:45:10 ******* PSpice Lite (March 2016) ******* ID# 10813 ****

 ** Profile: "SCHEMATIC1-vibr_bias"  [ c:\projects_orcad\lab3\multivibr-PSpiceFiles\SCHEMATIC1\vibr_bias.sim ] 


 ****     SMALL SIGNAL BIAS SOLUTION       TEMPERATURE =   27.000 DEG C


******************************************************************************



 NODE   VOLTAGE     NODE   VOLTAGE     NODE   VOLTAGE     NODE   VOLTAGE


(N00210)    4.3709 (N00214)    4.2597 (N00232)    4.9519 (N00237)   10.0000     

(N00287)    4.3709 (N00302)    4.2597 (N00306)    4.9519 




    VOLTAGE SOURCE CURRENTS
    NAME         CURRENT

    V_V1        -1.136E-02

    TOTAL POWER DISSIPATION   1.14E-01  WATTS


**** 11/10/20 21:45:10 ******* PSpice Lite (March 2016) ******* ID# 10813 ****

 ** Profile: "SCHEMATIC1-vibr_bias"  [ c:\projects_orcad\lab3\multivibr-PSpiceFiles\SCHEMATIC1\vibr_bias.sim ] 


 ****     OPERATING POINT INFORMATION      TEMPERATURE =   27.000 DEG C


******************************************************************************






**** BIPOLAR JUNCTION TRANSISTORS


NAME         Q_Q1        Q_Q2      
MODEL        Q2N2222     Q2N2222   
IB           5.05E-05    5.05E-05 
IC           5.63E-03    5.63E-03 
VBE          6.92E-01    6.92E-01 
VBC          5.81E-01    5.81E-01 
VCE          1.11E-01    1.11E-01 
BETADC       1.12E+02    1.12E+02 
GM           2.14E-01    2.14E-01 
RPI          8.20E+02    8.20E+02 
RX           1.00E+01    1.00E+01 
RO           2.62E+02    2.62E+02 
CBE          1.27E-10    1.27E-10 
CBC          1.92E-10    1.92E-10 
CJS          0.00E+00    0.00E+00 
BETAAC       1.76E+02    1.76E+02 
CBX/CBX2     0.00E+00    0.00E+00 
FT/FT2       1.07E+08    1.07E+08 



          JOB CONCLUDED

**** 11/10/20 21:45:10 ******* PSpice Lite (March 2016) ******* ID# 10813 ****

 ** Profile: "SCHEMATIC1-vibr_bias"  [ c:\projects_orcad\lab3\multivibr-PSpiceFiles\SCHEMATIC1\vibr_bias.sim ] 


 ****     JOB STATISTICS SUMMARY


******************************************************************************



  Total job time (using Solver 1)   =         .03
