
**** 10/28/20 11:04:35 ******* PSpice Lite (March 2016) ******* ID# 10813 ****

 ** Profile: "SCHEMATIC1-biaspoint"  [ D:\Orcad\lab3\gen-PSpiceFiles\SCHEMATIC1\biaspoint.sim ] 


 ****     CIRCUIT DESCRIPTION


******************************************************************************




** Creating circuit file "biaspoint.cir" 
** WARNING: THIS AUTOMATICALLY GENERATED FILE MAY BE OVERWRITTEN BY SUBSEQUENT SIMULATIONS

*Libraries: 
* Profile Libraries :
* Local Libraries :
* From [PSPICE NETLIST] section of C:\Users\bohda\AppData\Roaming\SPB_Data\cdssetup\OrCAD_PSpice\17.2.0\PSpice.ini file:
.lib "nomd.lib" 

*Analysis directives: 
.OP
.OPTIONS ADVCONV
.PROBE64 V(alias(*)) I(alias(*)) W(alias(*)) D(alias(*)) NOISE(alias(*)) 
.INC "..\SCHEMATIC1.net" 



**** INCLUDING SCHEMATIC1.net ****
* source GEN
L_L1         OUT N00380  1u  
C_C1         N00246 OUT  10p  TC=0,0 
C_C2         N00246 N00642  120p  TC=0,0 
R_R4         OUT N00380  10k TC=0,0 
R_R2         N00720 N00380  15k TC=0,0 
R_R3         N00720 N00642  10k TC=0,0 
C_C3         OUT N00380  30p  TC=0,0 
R_R1         N00642 N00246  510 TC=0,0 
C_C4         N00642 N00703  2200p  TC=0,0 
Q_Q1         OUT N00703 N00246 Q2N2222
V_V1         N00380 0 1.5V

**** RESUMING biaspoint.cir ****
.END

**** 10/28/20 11:04:35 ******* PSpice Lite (March 2016) ******* ID# 10813 ****

 ** Profile: "SCHEMATIC1-biaspoint"  [ D:\Orcad\lab3\gen-PSpiceFiles\SCHEMATIC1\biaspoint.sim ] 


 ****     BJT MODEL PARAMETERS


******************************************************************************




               Q2N2222         
               NPN             
       LEVEL    1            
          IS   14.340000E-15 
          BF  255.9          
          NF    1            
         VAF   74.03         
         IKF     .2847       
         ISE   14.340000E-15 
          NE    1.307        
          BR    6.092        
          NR    1            
         ISS    0            
          RB   10            
          RE    0            
          RC    1            
         CJE   22.010000E-12 
         VJE     .75         
         MJE     .377        
         CJC    7.306000E-12 
         VJC     .75         
         MJC     .3416       
        XCJC    1            
         CJS    0            
         VJS     .75         
          TF  411.100000E-12 
         XTF    3            
         VTF    1.7          
         ITF     .6          
          TR   46.910000E-09 
         XTB    1.5          
          KF    0            
          AF    1            
          CN    2.42         
           D     .87         


**** 10/28/20 11:04:35 ******* PSpice Lite (March 2016) ******* ID# 10813 ****

 ** Profile: "SCHEMATIC1-biaspoint"  [ D:\Orcad\lab3\gen-PSpiceFiles\SCHEMATIC1\biaspoint.sim ] 


 ****     SMALL SIGNAL BIAS SOLUTION       TEMPERATURE =   27.000 DEG C


******************************************************************************



 NODE   VOLTAGE     NODE   VOLTAGE     NODE   VOLTAGE     NODE   VOLTAGE


(  OUT)    1.5000  (N00246)    1.5000 (N00380)    1.5000 (N00642)    1.5000     

(N00703)    1.5000 (N00720)    1.5000 




    VOLTAGE SOURCE CURRENTS
    NAME         CURRENT

    V_V1         1.768E-16

    TOTAL POWER DISSIPATION  -2.65E-16  WATTS


**** 10/28/20 11:04:35 ******* PSpice Lite (March 2016) ******* ID# 10813 ****

 ** Profile: "SCHEMATIC1-biaspoint"  [ D:\Orcad\lab3\gen-PSpiceFiles\SCHEMATIC1\biaspoint.sim ] 


 ****     OPERATING POINT INFORMATION      TEMPERATURE =   27.000 DEG C


******************************************************************************






**** BIPOLAR JUNCTION TRANSISTORS


NAME         Q_Q1      
MODEL        Q2N2222   
IB          -8.32E-19 
IC           3.10E-19 
VBE         -1.21E-06 
VBC         -1.21E-06 
VCE         -9.10E-15 
BETADC      -3.72E-01 
GM          -1.90E-25 
RPI          2.32E+12 
RX           1.00E+01 
RO           6.43E+11 
CBE          2.20E-11 
CBC          7.31E-12 
CJS          0.00E+00 
BETAAC      -4.42E-13 
CBX/CBX2     0.00E+00 
FT/FT2      -1.03E-15 



          JOB CONCLUDED

**** 10/28/20 11:04:35 ******* PSpice Lite (March 2016) ******* ID# 10813 ****

 ** Profile: "SCHEMATIC1-biaspoint"  [ D:\Orcad\lab3\gen-PSpiceFiles\SCHEMATIC1\biaspoint.sim ] 


 ****     JOB STATISTICS SUMMARY


******************************************************************************



  Total job time (using Solver 1)   =         .03
