
**** 10/28/20 12:29:42 ******* PSpice Lite (March 2016) ******* ID# 10813 ****

 ** Profile: "SCHEMATIC1-biaspoint"  [ d:\orcad\lab3\gen-pspicefiles\schematic1\biaspoint.sim ] 


 ****     CIRCUIT DESCRIPTION


******************************************************************************




** Creating circuit file "biaspoint.cir" 
** WARNING: THIS AUTOMATICALLY GENERATED FILE MAY BE OVERWRITTEN BY SUBSEQUENT SIMULATIONS

*Libraries: 
* Profile Libraries :
* Local Libraries :
* From [PSPICE NETLIST] section of C:\Users\bohda\AppData\Roaming\SPB_Data\cdssetup\OrCAD_PSpice\17.2.0\PSpice.ini file:
.lib "nomd.lib" 

*Analysis directives: 
.OP
.OPTIONS ADVCONV
.PROBE64 V(alias(*)) I(alias(*)) W(alias(*)) D(alias(*)) NOISE(alias(*)) 
.INC "..\SCHEMATIC1.net" 



**** INCLUDING SCHEMATIC1.net ****
* source GEN
L_L1         OUT N01697  1u IC=53.2u 
R_R1         0 N01604  510 TC=0,0 
C_C1         N01604 OUT  10p  TC=0,0 
C_C2         0 N01604  120p  TC=0,0 
R_R2         N01571 N01697  15k TC=0,0 
R_R3         0 N01571  10k TC=0,0 
C_C3         OUT N01697  30p  TC=0,0 
R_R4         OUT N01697  10k TC=0,0 
C_C4         0 N01571  2200p  TC=0,0 
Q_Q1         OUT N01571 N01604 Q2N2222
V_V1         N01697 0 1.5V
R_R9         0 N02978  750 TC=0,0 
Q_Q2         N02834 N02842 N02978 Q2N2222
R_R7         N02842 N02714  100k TC=0,0 
R_R5         N02834 N02714  1k TC=0,0 
R_R8         N02846 N02714  1k TC=0,0 
C_C5         N02834 N02838  0.01u  TC=0,0 
R_R6         N02838 N02714  100k TC=0,0 
Q_Q3         N02846 N02838 N02982 Q2N2222
C_C6         N02842 N02846  0.01u  TC=0,0 
R_R10         0 N02982  750 TC=0,0 
V_V2         N02714 0 10V
.IC         V(OUT )=0.1V
.IC         V(N01604 )=27.39mV
.IC         V(N01571 )=597mV

**** RESUMING biaspoint.cir ****
.END

**** 10/28/20 12:29:42 ******* PSpice Lite (March 2016) ******* ID# 10813 ****

 ** Profile: "SCHEMATIC1-biaspoint"  [ d:\orcad\lab3\gen-pspicefiles\schematic1\biaspoint.sim ] 


 ****     BJT MODEL PARAMETERS


******************************************************************************




               Q2N2222         
               NPN             
       LEVEL    1            
          IS   14.340000E-15 
          BF  255.9          
          NF    1            
         VAF   74.03         
         IKF     .2847       
         ISE   14.340000E-15 
          NE    1.307        
          BR    6.092        
          NR    1            
         ISS    0            
          RB   10            
          RE    0            
          RC    1            
         CJE   22.010000E-12 
         VJE     .75         
         MJE     .377        
         CJC    7.306000E-12 
         VJC     .75         
         MJC     .3416       
        XCJC    1            
         CJS    0            
         VJS     .75         
          TF  411.100000E-12 
         XTF    3            
         VTF    1.7          
         ITF     .6          
          TR   46.910000E-09 
         XTB    1.5          
          KF    0            
          AF    1            
          CN    2.42         
           D     .87         


**** 10/28/20 12:29:42 ******* PSpice Lite (March 2016) ******* ID# 10813 ****

 ** Profile: "SCHEMATIC1-biaspoint"  [ d:\orcad\lab3\gen-pspicefiles\schematic1\biaspoint.sim ] 


 ****     SMALL SIGNAL BIAS SOLUTION       TEMPERATURE =   27.000 DEG C


******************************************************************************



 NODE   VOLTAGE     NODE   VOLTAGE     NODE   VOLTAGE     NODE   VOLTAGE


(  OUT)     .1000  (N01571)     .5970 (N01604)     .0274 (N01697)    1.5000     

(N02714)   10.0000 (N02834)    4.3709 (N02838)    4.9519 (N02842)    4.9519     

(N02846)    4.3709 (N02978)    4.2597 (N02982)    4.2597 




    VOLTAGE SOURCE CURRENTS
    NAME         CURRENT

    V_V1        -1.470E-04
    V_V2        -1.136E-02

    TOTAL POWER DISSIPATION   1.14E-01  WATTS


**** 10/28/20 12:29:42 ******* PSpice Lite (March 2016) ******* ID# 10813 ****

 ** Profile: "SCHEMATIC1-biaspoint"  [ d:\orcad\lab3\gen-pspicefiles\schematic1\biaspoint.sim ] 


 ****     OPERATING POINT INFORMATION      TEMPERATURE =   27.000 DEG C


******************************************************************************






**** BIPOLAR JUNCTION TRANSISTORS


NAME         Q_Q1        Q_Q2        Q_Q3      
MODEL        Q2N2222     Q2N2222     Q2N2222   
IB           1.03E-06    5.05E-05    5.05E-05 
IC           4.85E-05    5.63E-03    5.63E-03 
VBE          5.70E-01    6.92E-01    6.92E-01 
VBC          4.97E-01    5.81E-01    5.81E-01 
VCE          7.26E-02    1.11E-01    1.11E-01 
BETADC       4.73E+01    1.12E+02    1.12E+02 
GM           1.90E-03    2.14E-01    2.14E-01 
RPI          5.97E+04    8.20E+02    8.20E+02 
RX           1.00E+01    1.00E+01    1.00E+01 
RO           8.14E+03    2.62E+02    2.62E+02 
CBE          3.50E-11    1.27E-10    1.27E-10 
CBC          1.61E-11    1.92E-10    1.92E-10 
CJS          0.00E+00    0.00E+00    0.00E+00 
BETAAC       1.13E+02    1.76E+02    1.76E+02 
CBX/CBX2     0.00E+00    0.00E+00    0.00E+00 
FT/FT2       5.91E+06    1.07E+08    1.07E+08 



          JOB CONCLUDED

**** 10/28/20 12:29:42 ******* PSpice Lite (March 2016) ******* ID# 10813 ****

 ** Profile: "SCHEMATIC1-biaspoint"  [ d:\orcad\lab3\gen-pspicefiles\schematic1\biaspoint.sim ] 


 ****     JOB STATISTICS SUMMARY


******************************************************************************



  Total job time (using Solver 1)   =         .03
